1



                                 *********************************************

                                    NUMERICAL ELECTROMAGNETICS CODE (NEC-2D)

                                 *********************************************




                                     - - - - COMMENTS - - - -


                          Example 1 :	Dipole in free space 	                                         
                          See GetStarted.txt                                                         
                                                                                                     
                                                                                                     
                                                                                                     
                                                                                                     
                          forw: 90, 0 ; back:-90, 0                                                  
                                                                                                     




                                 - - - STRUCTURE SPECIFICATION - - -

                                     COORDINATES MUST BE INPUT IN
                                     METERS OR BE SCALED TO METERS
                                     BEFORE STRUCTURE INPUT IS ENDED


  WIRE                                                                               NO. OF    FIRST  LAST     TAG
  NO.        X1         Y1         Z1          X2         Y2         Z2      RADIUS   SEG.     SEG.   SEG.     NO.
     1    0.00000    0.00000   -0.08715     0.00000    0.00000    0.08715    0.00000     51        1    51       1

   TOTAL SEGMENTS USED=   51     NO. SEG. IN A SYMMETRIC CELL=   51     SYMMETRY FLAG=  0


         - MULTIPLE WIRE JUNCTIONS -
 JUNCTION    SEGMENTS  (- FOR END 1, + FOR END 2)
  NONE




                                 - - - - SEGMENTATION DATA - - - -

                                        COORDINATES IN METERS

                         I+ AND I- INDICATE THE SEGMENTS BEFORE AND AFTER I


  SEG.   COORDINATES OF SEG. CENTER     SEG.     ORIENTATION ANGLES    WIRE    CONNECTION DATA   TAG
  NO.       X         Y         Z       LENGTH     ALPHA     BETA      RADIUS    I-   I    I+    NO.
     1   0.00000   0.00000  -0.08544   0.00342   90.00000   0.00000   0.00000     0    1    2      1
     2   0.00000   0.00000  -0.08202   0.00342   90.00000   0.00000   0.00000     1    2    3      1
     3   0.00000   0.00000  -0.07860   0.00342   90.00000   0.00000   0.00000     2    3    4      1
     4   0.00000   0.00000  -0.07519   0.00342   90.00000   0.00000   0.00000     3    4    5      1
     5   0.00000   0.00000  -0.07177   0.00342   90.00000   0.00000   0.00000     4    5    6      1
     6   0.00000   0.00000  -0.06835   0.00342   90.00000   0.00000   0.00000     5    6    7      1
     7   0.00000   0.00000  -0.06493   0.00342   90.00000   0.00000   0.00000     6    7    8      1
     8   0.00000   0.00000  -0.06152   0.00342   90.00000   0.00000   0.00000     7    8    9      1
     9   0.00000   0.00000  -0.05810   0.00342   90.00000   0.00000   0.00000     8    9   10      1
    10   0.00000   0.00000  -0.05468   0.00342   90.00000   0.00000   0.00000     9   10   11      1
    11   0.00000   0.00000  -0.05126   0.00342   90.00000   0.00000   0.00000    10   11   12      1
    12   0.00000   0.00000  -0.04785   0.00342   90.00000   0.00000   0.00000    11   12   13      1
    13   0.00000   0.00000  -0.04443   0.00342   90.00000   0.00000   0.00000    12   13   14      1
    14   0.00000   0.00000  -0.04101   0.00342   90.00000   0.00000   0.00000    13   14   15      1
    15   0.00000   0.00000  -0.03759   0.00342   90.00000   0.00000   0.00000    14   15   16      1
    16   0.00000   0.00000  -0.03418   0.00342   90.00000   0.00000   0.00000    15   16   17      1
    17   0.00000   0.00000  -0.03076   0.00342   90.00000   0.00000   0.00000    16   17   18      1
    18   0.00000   0.00000  -0.02734   0.00342   90.00000   0.00000   0.00000    17   18   19      1
    19   0.00000   0.00000  -0.02392   0.00342   90.00000   0.00000   0.00000    18   19   20      1
    20   0.00000   0.00000  -0.02051   0.00342   90.00000   0.00000   0.00000    19   20   21      1
    21   0.00000   0.00000  -0.01709   0.00342   90.00000   0.00000   0.00000    20   21   22      1
    22   0.00000   0.00000  -0.01367   0.00342   90.00000   0.00000   0.00000    21   22   23      1
    23   0.00000   0.00000  -0.01025   0.00342   90.00000   0.00000   0.00000    22   23   24      1
    24   0.00000   0.00000  -0.00684   0.00342   90.00000   0.00000   0.00000    23   24   25      1
    25   0.00000   0.00000  -0.00342   0.00342   90.00000   0.00000   0.00000    24   25   26      1
    26   0.00000   0.00000   0.00000   0.00342   90.00000   0.00000   0.00000    25   26   27      1
    27   0.00000   0.00000   0.00342   0.00342   90.00000   0.00000   0.00000    26   27   28      1
    28   0.00000   0.00000   0.00684   0.00342   90.00000   0.00000   0.00000    27   28   29      1
    29   0.00000   0.00000   0.01025   0.00342   90.00000   0.00000   0.00000    28   29   30      1
    30   0.00000   0.00000   0.01367   0.00342   90.00000   0.00000   0.00000    29   30   31      1
    31   0.00000   0.00000   0.01709   0.00342   90.00000   0.00000   0.00000    30   31   32      1
    32   0.00000   0.00000   0.02051   0.00342   90.00000   0.00000   0.00000    31   32   33      1
    33   0.00000   0.00000   0.02392   0.00342   90.00000   0.00000   0.00000    32   33   34      1
    34   0.00000   0.00000   0.02734   0.00342   90.00000   0.00000   0.00000    33   34   35      1
    35   0.00000   0.00000   0.03076   0.00342   90.00000   0.00000   0.00000    34   35   36      1
    36   0.00000   0.00000   0.03418   0.00342   90.00000   0.00000   0.00000    35   36   37      1
    37   0.00000   0.00000   0.03759   0.00342   90.00000   0.00000   0.00000    36   37   38      1
    38   0.00000   0.00000   0.04101   0.00342   90.00000   0.00000   0.00000    37   38   39      1
    39   0.00000   0.00000   0.04443   0.00342   90.00000   0.00000   0.00000    38   39   40      1
    40   0.00000   0.00000   0.04785   0.00342   90.00000   0.00000   0.00000    39   40   41      1
    41   0.00000   0.00000   0.05126   0.00342   90.00000   0.00000   0.00000    40   41   42      1
    42   0.00000   0.00000   0.05468   0.00342   90.00000   0.00000   0.00000    41   42   43      1
    43   0.00000   0.00000   0.05810   0.00342   90.00000   0.00000   0.00000    42   43   44      1
    44   0.00000   0.00000   0.06152   0.00342   90.00000   0.00000   0.00000    43   44   45      1
    45   0.00000   0.00000   0.06493   0.00342   90.00000   0.00000   0.00000    44   45   46      1
    46   0.00000   0.00000   0.06835   0.00342   90.00000   0.00000   0.00000    45   46   47      1
    47   0.00000   0.00000   0.07177   0.00342   90.00000   0.00000   0.00000    46   47   48      1
    48   0.00000   0.00000   0.07519   0.00342   90.00000   0.00000   0.00000    47   48   49      1
    49   0.00000   0.00000   0.07860   0.00342   90.00000   0.00000   0.00000    48   49   50      1
    50   0.00000   0.00000   0.08202   0.00342   90.00000   0.00000   0.00000    49   50   51      1
    51   0.00000   0.00000   0.08544   0.00342   90.00000   0.00000   0.00000    50   51    0      1






 ***** DATA CARD NO.  1   GN  -1     0     0     0  0.00000E+00  0.00000E+00  0.00000E+00  0.00000E+00  0.00000E+00  0.00000E+00
 ***** DATA CARD NO.  2   EK   0     0     0     0  0.00000E+00  0.00000E+00  0.00000E+00  0.00000E+00  0.00000E+00  0.00000E+00
 ***** DATA CARD NO.  3   EX   0     1    26     0  1.00000E+00  0.00000E+00  0.00000E+00  0.00000E+00  0.00000E+00  0.00000E+00
 ***** DATA CARD NO.  4   FR   0     0     0     0  8.60000E+02  0.00000E+00  0.00000E+00  0.00000E+00  0.00000E+00  0.00000E+00
 ***** DATA CARD NO.  5   XQ   0     0     0     0  0.00000E+00  0.00000E+00  0.00000E+00  0.00000E+00  0.00000E+00  0.00000E+00




                                 - - - - - - FREQUENCY - - - - - -

                                    FREQUENCY= 8.6000E+02 MHZ
                                    WAVELENGTH= 3.4860E-01 METERS




                    APPROXIMATE INTEGRATION EMPLOYED FOR SEGMENTS MORE THAN   1.000 WAVELENGTHS APART

                    THE EXTENDED THIN WIRE KERNEL WILL BE USED



                               - - - STRUCTURE IMPEDANCE LOADING - - -

                                   THIS STRUCTURE IS NOT LOADED



                                  - - - ANTENNA ENVIRONMENT - - -

                                            FREE SPACE



                                - - - MATRIX TIMING - - -

                        FILL=    0.000 SEC.,  FACTOR=    0.000 SEC.



                                          - - - ANTENNA INPUT PARAMETERS - - -

   TAG   SEG.    VOLTAGE (VOLTS)         CURRENT (AMPS)         IMPEDANCE (OHMS)        ADMITTANCE (MHOS)      POWER
   NO.   NO.    REAL        IMAG.       REAL        IMAG.       REAL        IMAG.       REAL        IMAG.     (WATTS)
     1    26 1.00000E+00 0.00000E+00 9.88907E-03-5.67252E-03 7.60867E+01 4.36445E+01 9.88907E-03-5.67252E-03 4.94453E-03



                             - - - CURRENTS AND LOCATION - - -

                                 DISTANCES IN WAVELENGTHS


  SEG.  TAG    COORD. OF SEG. CENTER     SEG.            - - - CURRENT (AMPS) - - -
  NO.   NO.     X        Y        Z      LENGTH     REAL        IMAG.       MAG.        PHASE
     1    1   0.0000   0.0000  -0.2451  0.00980   3.4382E-04 -2.1703E-04  4.0659E-04  -32.262
     2    1   0.0000   0.0000  -0.2353  0.00980   9.9168E-04 -6.2444E-04  1.1719E-03  -32.198
     3    1   0.0000   0.0000  -0.2255  0.00980   1.6159E-03 -1.0150E-03  1.9082E-03  -32.133
     4    1   0.0000   0.0000  -0.2157  0.00980   2.2254E-03 -1.3942E-03  2.6261E-03  -32.066
     5    1   0.0000   0.0000  -0.2059  0.00980   2.8212E-03 -1.7628E-03  3.3267E-03  -31.998
     6    1   0.0000   0.0000  -0.1961  0.00980   3.4028E-03 -2.1204E-03  4.0094E-03  -31.929
     7    1   0.0000   0.0000  -0.1863  0.00980   3.9689E-03 -2.4664E-03  4.6728E-03  -31.858
     8    1   0.0000   0.0000  -0.1765  0.00980   4.5182E-03 -2.7998E-03  5.3153E-03  -31.786
     9    1   0.0000   0.0000  -0.1667  0.00980   5.0491E-03 -3.1197E-03  5.9352E-03  -31.711
    10    1   0.0000   0.0000  -0.1569  0.00980   5.5600E-03 -3.4252E-03  6.5304E-03  -31.634
    11    1   0.0000   0.0000  -0.1471  0.00980   6.0494E-03 -3.7151E-03  7.0991E-03  -31.555
    12    1   0.0000   0.0000  -0.1373  0.00980   6.5156E-03 -3.9886E-03  7.6395E-03  -31.474
    13    1   0.0000   0.0000  -0.1274  0.00980   6.9570E-03 -4.2447E-03  8.1497E-03  -31.389
    14    1   0.0000   0.0000  -0.1176  0.00980   7.3722E-03 -4.4826E-03  8.6280E-03  -31.301
    15    1   0.0000   0.0000  -0.1078  0.00980   7.7598E-03 -4.7013E-03  9.0728E-03  -31.210
    16    1   0.0000   0.0000  -0.0980  0.00980   8.1183E-03 -4.9002E-03  9.4826E-03  -31.115
    17    1   0.0000   0.0000  -0.0882  0.00980   8.4467E-03 -5.0784E-03  9.8558E-03  -31.016
    18    1   0.0000   0.0000  -0.0784  0.00980   8.7436E-03 -5.2354E-03  1.0191E-02  -30.912
    19    1   0.0000   0.0000  -0.0686  0.00980   9.0082E-03 -5.3705E-03  1.0488E-02  -30.802
    20    1   0.0000   0.0000  -0.0588  0.00980   9.2394E-03 -5.4831E-03  1.0744E-02  -30.687
    21    1   0.0000   0.0000  -0.0490  0.00980   9.4364E-03 -5.5729E-03  1.0959E-02  -30.565
    22    1   0.0000   0.0000  -0.0392  0.00980   9.5986E-03 -5.6394E-03  1.1133E-02  -30.435
    23    1   0.0000   0.0000  -0.0294  0.00980   9.7253E-03 -5.6821E-03  1.1264E-02  -30.296
    24    1   0.0000   0.0000  -0.0196  0.00980   9.8162E-03 -5.7007E-03  1.1351E-02  -30.145
    25    1   0.0000   0.0000  -0.0098  0.00980   9.8708E-03 -5.6942E-03  1.1395E-02  -29.979
    26    1   0.0000   0.0000   0.0000  0.00980   9.8891E-03 -5.6725E-03  1.1400E-02  -29.839
    27    1   0.0000   0.0000   0.0098  0.00980   9.8708E-03 -5.6942E-03  1.1395E-02  -29.979
    28    1   0.0000   0.0000   0.0196  0.00980   9.8162E-03 -5.7007E-03  1.1351E-02  -30.145
    29    1   0.0000   0.0000   0.0294  0.00980   9.7253E-03 -5.6821E-03  1.1264E-02  -30.296
    30    1   0.0000   0.0000   0.0392  0.00980   9.5986E-03 -5.6394E-03  1.1133E-02  -30.435
    31    1   0.0000   0.0000   0.0490  0.00980   9.4364E-03 -5.5729E-03  1.0959E-02  -30.565
    32    1   0.0000   0.0000   0.0588  0.00980   9.2394E-03 -5.4831E-03  1.0744E-02  -30.687
    33    1   0.0000   0.0000   0.0686  0.00980   9.0082E-03 -5.3705E-03  1.0488E-02  -30.802
    34    1   0.0000   0.0000   0.0784  0.00980   8.7436E-03 -5.2354E-03  1.0191E-02  -30.912
    35    1   0.0000   0.0000   0.0882  0.00980   8.4467E-03 -5.0784E-03  9.8558E-03  -31.016
    36    1   0.0000   0.0000   0.0980  0.00980   8.1183E-03 -4.9002E-03  9.4826E-03  -31.115
    37    1   0.0000   0.0000   0.1078  0.00980   7.7598E-03 -4.7013E-03  9.0728E-03  -31.210
    38    1   0.0000   0.0000   0.1176  0.00980   7.3722E-03 -4.4826E-03  8.6280E-03  -31.301
    39    1   0.0000   0.0000   0.1274  0.00980   6.9570E-03 -4.2447E-03  8.1497E-03  -31.389
    40    1   0.0000   0.0000   0.1373  0.00980   6.5156E-03 -3.9886E-03  7.6395E-03  -31.474
    41    1   0.0000   0.0000   0.1471  0.00980   6.0494E-03 -3.7151E-03  7.0991E-03  -31.555
    42    1   0.0000   0.0000   0.1569  0.00980   5.5600E-03 -3.4252E-03  6.5304E-03  -31.634
    43    1   0.0000   0.0000   0.1667  0.00980   5.0491E-03 -3.1197E-03  5.9352E-03  -31.711
    44    1   0.0000   0.0000   0.1765  0.00980   4.5182E-03 -2.7998E-03  5.3153E-03  -31.786
    45    1   0.0000   0.0000   0.1863  0.00980   3.9689E-03 -2.4664E-03  4.6728E-03  -31.858
    46    1   0.0000   0.0000   0.1961  0.00980   3.4028E-03 -2.1204E-03  4.0094E-03  -31.929
    47    1   0.0000   0.0000   0.2059  0.00980   2.8212E-03 -1.7628E-03  3.3267E-03  -31.998
    48    1   0.0000   0.0000   0.2157  0.00980   2.2254E-03 -1.3942E-03  2.6261E-03  -32.066
    49    1   0.0000   0.0000   0.2255  0.00980   1.6159E-03 -1.0150E-03  1.9082E-03  -32.133
    50    1   0.0000   0.0000   0.2353  0.00980   9.9168E-04 -6.2444E-04  1.1719E-03  -32.198
    51    1   0.0000   0.0000   0.2451  0.00980   3.4382E-04 -2.1703E-04  4.0659E-04  -32.262



                                        - - - POWER BUDGET - - -

                                           INPUT POWER   = 4.9445E-03 WATTS
                                           RADIATED POWER= 4.9445E-03 WATTS
                                           STRUCTURE LOSS= 0.0000E+00 WATTS
                                           NETWORK LOSS  = 0.0000E+00 WATTS
                                           EFFICIENCY    = 100.00 PERCENT






 ***** DATA CARD NO.  6   FR   0    13     0     0  8.60000E+02  2.15000E+02  0.00000E+00  0.00000E+00  0.00000E+00  0.00000E+00
 ***** DATA CARD NO.  7   RP   0   181     1  1000 -1.80000E+02  0.00000E+00  2.00000E+00  0.00000E+00  0.00000E+00  0.00000E+00




                                 - - - - - - FREQUENCY - - - - - -

                                    FREQUENCY= 8.6000E+02 MHZ
                                    WAVELENGTH= 3.4860E-01 METERS




                    APPROXIMATE INTEGRATION EMPLOYED FOR SEGMENTS MORE THAN   1.000 WAVELENGTHS APART

                    THE EXTENDED THIN WIRE KERNEL WILL BE USED



                               - - - STRUCTURE IMPEDANCE LOADING - - -

                                   THIS STRUCTURE IS NOT LOADED



                                  - - - ANTENNA ENVIRONMENT - - -

                                            FREE SPACE



                                - - - MATRIX TIMING - - -

                        FILL=    0.016 SEC.,  FACTOR=    0.000 SEC.



                                          - - - ANTENNA INPUT PARAMETERS - - -

   TAG   SEG.    VOLTAGE (VOLTS)         CURRENT (AMPS)         IMPEDANCE (OHMS)        ADMITTANCE (MHOS)      POWER
   NO.   NO.    REAL        IMAG.       REAL        IMAG.       REAL        IMAG.       REAL        IMAG.     (WATTS)
     1    26 1.00000E+00 0.00000E+00 9.88907E-03-5.67252E-03 7.60867E+01 4.36445E+01 9.88907E-03-5.67252E-03 4.94453E-03



                             - - - CURRENTS AND LOCATION - - -

                                 DISTANCES IN WAVELENGTHS


  SEG.  TAG    COORD. OF SEG. CENTER     SEG.            - - - CURRENT (AMPS) - - -
  NO.   NO.     X        Y        Z      LENGTH     REAL        IMAG.       MAG.        PHASE
     1    1   0.0000   0.0000  -0.2451  0.00980   3.4382E-04 -2.1703E-04  4.0659E-04  -32.262
     2    1   0.0000   0.0000  -0.2353  0.00980   9.9168E-04 -6.2444E-04  1.1719E-03  -32.198
     3    1   0.0000   0.0000  -0.2255  0.00980   1.6159E-03 -1.0150E-03  1.9082E-03  -32.133
     4    1   0.0000   0.0000  -0.2157  0.00980   2.2254E-03 -1.3942E-03  2.6261E-03  -32.066
     5    1   0.0000   0.0000  -0.2059  0.00980   2.8212E-03 -1.7628E-03  3.3267E-03  -31.998
     6    1   0.0000   0.0000  -0.1961  0.00980   3.4028E-03 -2.1204E-03  4.0094E-03  -31.929
     7    1   0.0000   0.0000  -0.1863  0.00980   3.9689E-03 -2.4664E-03  4.6728E-03  -31.858
     8    1   0.0000   0.0000  -0.1765  0.00980   4.5182E-03 -2.7998E-03  5.3153E-03  -31.786
     9    1   0.0000   0.0000  -0.1667  0.00980   5.0491E-03 -3.1197E-03  5.9352E-03  -31.711
    10    1   0.0000   0.0000  -0.1569  0.00980   5.5600E-03 -3.4252E-03  6.5304E-03  -31.634
    11    1   0.0000   0.0000  -0.1471  0.00980   6.0494E-03 -3.7151E-03  7.0991E-03  -31.555
    12    1   0.0000   0.0000  -0.1373  0.00980   6.5156E-03 -3.9886E-03  7.6395E-03  -31.474
    13    1   0.0000   0.0000  -0.1274  0.00980   6.9570E-03 -4.2447E-03  8.1497E-03  -31.389
    14    1   0.0000   0.0000  -0.1176  0.00980   7.3722E-03 -4.4826E-03  8.6280E-03  -31.301
    15    1   0.0000   0.0000  -0.1078  0.00980   7.7598E-03 -4.7013E-03  9.0728E-03  -31.210
    16    1   0.0000   0.0000  -0.0980  0.00980   8.1183E-03 -4.9002E-03  9.4826E-03  -31.115
    17    1   0.0000   0.0000  -0.0882  0.00980   8.4467E-03 -5.0784E-03  9.8558E-03  -31.016
    18    1   0.0000   0.0000  -0.0784  0.00980   8.7436E-03 -5.2354E-03  1.0191E-02  -30.912
    19    1   0.0000   0.0000  -0.0686  0.00980   9.0082E-03 -5.3705E-03  1.0488E-02  -30.802
    20    1   0.0000   0.0000  -0.0588  0.00980   9.2394E-03 -5.4831E-03  1.0744E-02  -30.687
    21    1   0.0000   0.0000  -0.0490  0.00980   9.4364E-03 -5.5729E-03  1.0959E-02  -30.565
    22    1   0.0000   0.0000  -0.0392  0.00980   9.5986E-03 -5.6394E-03  1.1133E-02  -30.435
    23    1   0.0000   0.0000  -0.0294  0.00980   9.7253E-03 -5.6821E-03  1.1264E-02  -30.296
    24    1   0.0000   0.0000  -0.0196  0.00980   9.8162E-03 -5.7007E-03  1.1351E-02  -30.145
    25    1   0.0000   0.0000  -0.0098  0.00980   9.8708E-03 -5.6942E-03  1.1395E-02  -29.979
    26    1   0.0000   0.0000   0.0000  0.00980   9.8891E-03 -5.6725E-03  1.1400E-02  -29.839
    27    1   0.0000   0.0000   0.0098  0.00980   9.8708E-03 -5.6942E-03  1.1395E-02  -29.979
    28    1   0.0000   0.0000   0.0196  0.00980   9.8162E-03 -5.7007E-03  1.1351E-02  -30.145
    29    1   0.0000   0.0000   0.0294  0.00980   9.7253E-03 -5.6821E-03  1.1264E-02  -30.296
    30    1   0.0000   0.0000   0.0392  0.00980   9.5986E-03 -5.6394E-03  1.1133E-02  -30.435
    31    1   0.0000   0.0000   0.0490  0.00980   9.4364E-03 -5.5729E-03  1.0959E-02  -30.565
    32    1   0.0000   0.0000   0.0588  0.00980   9.2394E-03 -5.4831E-03  1.0744E-02  -30.687
    33    1   0.0000   0.0000   0.0686  0.00980   9.0082E-03 -5.3705E-03  1.0488E-02  -30.802
    34    1   0.0000   0.0000   0.0784  0.00980   8.7436E-03 -5.2354E-03  1.0191E-02  -30.912
    35    1   0.0000   0.0000   0.0882  0.00980   8.4467E-03 -5.0784E-03  9.8558E-03  -31.016
